
T13A4 000:533 SEGGER J-Link V4.90 Log File (0001ms, 0283ms total)
T13A4 000:533 DLL Compiled: Jul 28 2014 10:35:20 (0001ms, 0283ms total)
T13A4 000:533 Logging started @ 2017-02-13 15:44 (0001ms, 0283ms total)
T13A4 000:534 JLINK_SetWarnOutHandler(...) (0000ms, 0283ms total)
T13A4 000:534 JLINK_OpenEx(...)
Firmware: J-Link ARM V8 compiled Jan 31 2018 18:34:52
Hardware: V8.00
S/N: 20080643
Feature(s): RDI,FlashDL,FlashBP,JFlash,GDBFull  returns O.K. (0283ms, 0566ms total)
T13A4 000:817 JLINK_SetErrorOutHandler(...) (0000ms, 0566ms total)
T13A4 000:817 JLINK_ExecCommand("ProjectFile = "E:\工作文件\NET6\FHGX\FHGX_NTP服务端0170213\Project\MDK-ARM\JLinkSettings.ini"", ...)  returns 0x00 (0000ms, 0566ms total)
T13A4 000:836 JLINK_ExecCommand("Device = STM32F427VI", ...)Device "STM32F427VI" selected (2048 KB flash, 192 KB RAM).  returns 0x00 (0010ms, 0576ms total)
T13A4 000:846 JLINK_ExecCommand("DisableConnectionTimeout", ...)  returns 0x01 (0000ms, 0576ms total)
T13A4 000:846 JLINK_GetHardwareVersion()  returns 0x13880 (0000ms, 0576ms total)
T13A4 000:846 JLINK_GetDLLVersion()  returns 49000 (0000ms, 0576ms total)
T13A4 000:846 JLINK_GetFirmwareString(...) (0000ms, 0576ms total)
T13A4 000:861 JLINK_GetDLLVersion()  returns 49000 (0000ms, 0576ms total)
T13A4 000:861 JLINK_GetCompileDateTime() (0000ms, 0576ms total)
T13A4 000:866 JLINK_GetFirmwareString(...) (0000ms, 0576ms total)
T13A4 000:869 JLINK_GetHardwareVersion()  returns 0x13880 (0000ms, 0576ms total)
T13A4 000:878 JLINK_TIF_Select(JLINKARM_TIF_SWD)  returns 0x00 (0004ms, 0580ms total)
T13A4 000:882 JLINK_SetSpeed(25000) (0001ms, 0581ms total)
T13A4 000:883 JLINK_GetId() >0x108 TIF>Found SWD-DP with ID 0x2BA01477 >0x0D TIF> >0x28 TIF> >0x0D TIF> >0x28 TIF> >0x0D TIF> >0x21 TIF> >0x0D TIF> >0x28 TIF> >0x0D TIF> >0x28 TIF> >0x0D TIF> >0x28 TIF> >0x0D TIF> >0x21 TIF> >0x0D TIF> >0x21 TIF> >0x0D TIF> >0x28 TIF> >0x0D TIF> >0x21 TIF> >0x0D TIF> >0x21 TIF> >0x0D TIF> >0x28 TIF> >0x0D TIF> >0x21 TIF> >0x0D TIF> >0x21 TIF> >0x108 TIF>Found SWD-DP with ID 0x2BA01477 >0x0D TIF> >0x21 TIF> >0x0D TIF> >0x28 TIF> >0x0D TIF> >0x28 TIF> >0x0D TIF> >0x21 TIF>
 >0x0D TIF> >0x28 TIF> >0x0D TIF> >0x21 TIF> >0x0D TIF> >0x21 TIF> >0x0D TIF> >0x21 TIF> >0x0D TIF> >0x28 TIF> >0x0D TIF> >0x21 TIF> >0x0D TIF> >0x28 TIF> >0x0D TIF> >0x28 TIF> >0x0D TIF> >0x21 TIF> >0x0D TIF> >0x28 TIF> >0x0D TIF> >0x28 TIF> >0x0D TIF> >0x28 TIF> >0x0D TIF> >0x21 TIF> >0x0D TIF> >0x21 TIF> >0x0D TIF> >0x28 TIF> >0x0D TIF> >0x21 TIF> >0x0D TIF> >0x21 TIF>Found Cortex-M4 r0p1, Little endian. >0x0D TIF> >0x28 TIF> -- CPU_WriteMem(4 bytes @ 0xE0002000) -- CPU_ReadMem(4 bytes @ 0xE000EDF0)
 -- CPU_ReadMem(4 bytes @ 0xE0002000)FPUnit: 6 code (BP) slots and 2 literal slots -- CPU_ReadMem(4 bytes @ 0xE000EDFC) -- CPU_ReadMem(4 bytes @ 0xE0001000) -- CPU_WriteMem(4 bytes @ 0xE0001000) -- CPU_ReadMem(4 bytes @ 0xE00FF010)TPIU fitted. -- CPU_ReadMem(4 bytes @ 0xE00FF014)ETM fitted. -- CPU_ReadMem(4 bytes @ 0xE00FF018) >0x0D TIF> >0x21 TIF>  returns 0x2BA01477 (0133ms, 0714ms total)
T13A4 001:016 JLINK_GetDLLVersion()  returns 49000 (0000ms, 0714ms total)
T13A4 001:016 JLINK_CORE_GetFound()  returns 0xE0000FF (0001ms, 0715ms total)
T13A4 001:024 JLINK_ReadMem (0xE00FF000, 0x0020 Bytes, ...) -- CPU is running -- CPU_ReadMem(32 bytes @ 0xE00FF000) - Data: 03 F0 F0 FF 03 20 F0 FF 03 30 F0 FF 03 10 F0 FF ...  returns 0x00 (0001ms, 0716ms total)
T13A4 001:025 JLINK_ReadMem (0xE000EFF0, 0x0010 Bytes, ...) -- CPU is running -- CPU_ReadMem(16 bytes @ 0xE000EFF0) - Data: 0D 00 00 00 E0 00 00 00 05 00 00 00 B1 00 00 00  returns 0x00 (0001ms, 0717ms total)
T13A4 001:026 JLINK_ReadMem (0xE000EFD0, 0x0020 Bytes, ...) -- CPU is running -- CPU_ReadMem(32 bytes @ 0xE000EFD0) - Data: 04 00 00 00 00 00 00 00 00 00 00 00 00 00 00 00 ...  returns 0x00 (0001ms, 0718ms total)
T13A4 001:027 JLINK_ReadMem (0xE0001FF0, 0x0010 Bytes, ...) -- CPU is running -- CPU_ReadMem(16 bytes @ 0xE0001FF0) - Data: 0D 00 00 00 E0 00 00 00 05 00 00 00 B1 00 00 00  returns 0x00 (0001ms, 0719ms total)
T13A4 001:028 JLINK_ReadMem (0xE0001FD0, 0x0020 Bytes, ...) -- CPU is running -- CPU_ReadMem(32 bytes @ 0xE0001FD0) - Data: 04 00 00 00 00 00 00 00 00 00 00 00 00 00 00 00 ...  returns 0x00 (0001ms, 0720ms total)
T13A4 001:029 JLINK_ReadMem (0xE0002FF0, 0x0010 Bytes, ...) -- CPU is running -- CPU_ReadMem(16 bytes @ 0xE0002FF0) - Data: 0D 00 00 00 E0 00 00 00 05 00 00 00 B1 00 00 00  returns 0x00 (0001ms, 0721ms total)
T13A4 001:030 JLINK_ReadMem (0xE0002FD0, 0x0020 Bytes, ...) -- CPU is running -- CPU_ReadMem(32 bytes @ 0xE0002FD0) - Data: 04 00 00 00 00 00 00 00 00 00 00 00 00 00 00 00 ...  returns 0x00 (0001ms, 0722ms total)
T13A4 001:031 JLINK_ReadMem (0xE0000FF0, 0x0010 Bytes, ...) -- CPU is running -- CPU_ReadMem(16 bytes @ 0xE0000FF0) - Data: 0D 00 00 00 E0 00 00 00 05 00 00 00 B1 00 00 00  returns 0x00 (0001ms, 0723ms total)
T13A4 001:032 JLINK_ReadMem (0xE0000FD0, 0x0020 Bytes, ...) -- CPU is running -- CPU_ReadMem(32 bytes @ 0xE0000FD0) - Data: 04 00 00 00 00 00 00 00 00 00 00 00 00 00 00 00 ...  returns 0x00 (0001ms, 0724ms total)
T13A4 001:033 JLINK_ReadMem (0xE0040FF0, 0x0010 Bytes, ...) -- CPU is running -- CPU_ReadMem(16 bytes @ 0xE0040FF0) - Data: 0D 00 00 00 90 00 00 00 05 00 00 00 B1 00 00 00  returns 0x00 (0001ms, 0725ms total)
T13A4 001:034 JLINK_ReadMem (0xE0040FD0, 0x0020 Bytes, ...) -- CPU is running -- CPU_ReadMem(32 bytes @ 0xE0040FD0) - Data: 04 00 00 00 00 00 00 00 00 00 00 00 00 00 00 00 ...  returns 0x00 (0001ms, 0726ms total)
T13A4 001:035 JLINK_ReadMem (0xE0041FF0, 0x0010 Bytes, ...) -- CPU is running -- CPU_ReadMem(16 bytes @ 0xE0041FF0) - Data: 0D 00 00 00 90 00 00 00 05 00 00 00 B1 00 00 00  returns 0x00 (0001ms, 0727ms total)
T13A4 001:036 JLINK_ReadMem (0xE0041FD0, 0x0020 Bytes, ...) -- CPU is running -- CPU_ReadMem(32 bytes @ 0xE0041FD0) - Data: 04 00 00 00 00 00 00 00 00 00 00 00 00 00 00 00 ...  returns 0x00 (0001ms, 0728ms total)
T13A4 001:037 JLINK_ReadMemU32(0xE000EF40, 0x0001 Items, ...) -- CPU is running -- CPU_ReadMem(4 bytes @ 0xE000EF40) - Data: 21 00 11 10  returns 0x01 (0001ms, 0729ms total)
T13A4 001:038 JLINK_ReadMemU32(0xE000EF44, 0x0001 Items, ...) -- CPU is running -- CPU_ReadMem(4 bytes @ 0xE000EF44) - Data: 11 00 00 11  returns 0x01 (0001ms, 0730ms total)
T13A4 001:039 JLINK_ReadMemU32(0xE000ED00, 0x0001 Items, ...) -- CPU is running -- CPU_ReadMem(4 bytes @ 0xE000ED00) - Data: 41 C2 0F 41  returns 0x01 (0001ms, 0731ms total)
T13A4 001:040 JLINK_SetResetType(JLINKARM_RESET_TYPE_NORMAL)  returns JLINKARM_RESET_TYPE_NORMAL (0000ms, 0731ms total)
T13A4 001:040 JLINK_Reset() -- CPU_WriteMem(4 bytes @ 0xE0002000) -- CPU_ReadMem(4 bytes @ 0xE000EDFC) -- CPU_WriteMem(4 bytes @ 0xE000EDFC) -- CPU_ReadMem(4 bytes @ 0xE0001000) (0017ms, 0748ms total)
T13A4 001:057 JLINK_Halt()  returns 0x00 (0000ms, 0748ms total)
T13A4 001:057 JLINK_IsHalted()  returns TRUE (0000ms, 0748ms total)
T13A4 001:057 JLINK_ReadMemU32(0xE000EDF0, 0x0001 Items, ...) -- CPU_ReadMem(4 bytes @ 0xE000EDF0) - Data: 03 00 03 00  returns 0x01 (0001ms, 0749ms total)
T13A4 001:058 JLINK_WriteU32(0xE000EDF0, 0xA05F0003) -- CPU_WriteMem(4 bytes @ 0xE000EDF0)  returns 0x00 (0001ms, 0750ms total)
T13A4 001:059 JLINK_WriteU32(0xE000EDFC, 0x01000000) -- CPU_WriteMem(4 bytes @ 0xE000EDFC)  returns 0x00 (0001ms, 0751ms total)
T13A4 001:076 JLINK_GetHWStatus(...)  returns 0x00 (0001ms, 0752ms total)
T13A4 001:087 JLINK_GetNumBPUnits(Type = 0xFFFFFF00)  returns 0x06 (0000ms, 0752ms total)
T13A4 001:087 JLINK_GetNumBPUnits(Type = 0xF0)  returns 0x2000 (0000ms, 0752ms total)
T13A4 001:087 JLINK_GetNumWPUnits()  returns 0x04 (0000ms, 0752ms total)
T13A4 001:093 JLINK_GetSpeed()  returns 0xFA0 (0000ms, 0752ms total)
T13A4 001:097 JLINK_ReadMemU32(0xE000E004, 0x0001 Items, ...) -- CPU_ReadMem(4 bytes @ 0xE000E004) - Data: 02 00 00 00  returns 0x01 (0001ms, 0753ms total)
T13A4 001:098 JLINK_ReadMemU32(0xE000E004, 0x0001 Items, ...) -- CPU_ReadMem(4 bytes @ 0xE000E004) - Data: 02 00 00 00  returns 0x01 (0001ms, 0754ms total)
T13A4 001:099 JLINK_WriteMem(0xE0001000, 0x001C Bytes, ...) - Data: 01 00 00 00 00 00 00 00 00 00 00 00 00 00 00 00 ... -- CPU_WriteMem(28 bytes @ 0xE0001000)  returns 0x1C (0001ms, 0755ms total)
T13A4 001:100 JLINK_ReadMem (0xE0001000, 0x001C Bytes, ...) -- CPU_ReadMem(28 bytes @ 0xE0001000) - Data: 01 00 00 40 00 00 00 00 00 00 00 00 00 00 00 00 ...  returns 0x00 (0001ms, 0756ms total)
T13A4 001:101 JLINK_Halt()  returns 0x00 (0000ms, 0756ms total)
T13A4 001:101 JLINK_IsHalted()  returns TRUE (0000ms, 0756ms total)
T13A4 001:103 JLINK_WriteMem(0x20000000, 0x0198 Bytes, ...) - Data: 00 BE 0A E0 0D 78 2D 06 68 40 08 24 40 00 00 D3 ... -- CPU_WriteMem(408 bytes @ 0x20000000)  returns 0x198 (0003ms, 0759ms total)
T13A4 001:106 JLINK_WriteReg(R0, 0x08000000)  returns 0x00 (0000ms, 0759ms total)
T13A4 001:106 JLINK_WriteReg(R1, 0x00B71B00)  returns 0x00 (0000ms, 0759ms total)
T13A4 001:106 JLINK_WriteReg(R2, 0x00000001)  returns 0x00 (0000ms, 0759ms total)
T13A4 001:106 JLINK_WriteReg(R3, 0x00000000)  returns 0x00 (0000ms, 0759ms total)
T13A4 001:106 JLINK_WriteReg(R4, 0x00000000)  returns 0x00 (0000ms, 0759ms total)
T13A4 001:106 JLINK_WriteReg(R5, 0x00000000)  returns 0x00 (0000ms, 0759ms total)
T13A4 001:106 JLINK_WriteReg(R6, 0x00000000)  returns 0x00 (0000ms, 0759ms total)
T13A4 001:106 JLINK_WriteReg(R7, 0x00000000)  returns 0x00 (0000ms, 0759ms total)
T13A4 001:106 JLINK_WriteReg(R8, 0x00000000)  returns 0x00 (0000ms, 0759ms total)
T13A4 001:106 JLINK_WriteReg(R9, 0x20000194)  returns 0x00 (0000ms, 0759ms total)
T13A4 001:106 JLINK_WriteReg(R10, 0x00000000)  returns 0x00 (0000ms, 0759ms total)
T13A4 001:106 JLINK_WriteReg(R11, 0x00000000)  returns 0x00 (0000ms, 0759ms total)
T13A4 001:106 JLINK_WriteReg(R12, 0x00000000)  returns 0x00 (0000ms, 0759ms total)
T13A4 001:106 JLINK_WriteReg(R13 (SP), 0x20000800)  returns 0x00 (0000ms, 0759ms total)
T13A4 001:106 JLINK_WriteReg(R14, 0x20000001)  returns 0x00 (0000ms, 0759ms total)
T13A4 001:106 JLINK_WriteReg(R15 (PC), 0x2000005E)  returns 0x00 (0000ms, 0759ms total)
T13A4 001:106 JLINK_WriteReg(XPSR, 0x01000000)  returns 0x00 (0000ms, 0759ms total)
T13A4 001:106 JLINK_WriteReg(MSP, 0x20000800)  returns 0x00 (0000ms, 0759ms total)
T13A4 001:106 JLINK_WriteReg(PSP, 0x20000800)  returns 0x00 (0000ms, 0759ms total)
T13A4 001:106 JLINK_WriteReg(CFBP, 0x00000000)  returns 0x00 (0000ms, 0759ms total)
T13A4 001:106 JLINK_SetBPEx(Addr = 0x20000000, Type = 0xFFFFFFF2) -- CPU_ReadMem(2 bytes @ 0x20000000)  returns 0x00000001 (0001ms, 0760ms total)
T13A4 001:107 JLINK_Go() -- CPU_WriteMem(2 bytes @ 0x20000000) -- CPU_WriteMem(4 bytes @ 0xE0002008) -- CPU_WriteMem(4 bytes @ 0xE000200C) -- CPU_WriteMem(4 bytes @ 0xE0002010) -- CPU_WriteMem(4 bytes @ 0xE0002014) -- CPU_WriteMem(4 bytes @ 0xE0002018) -- CPU_WriteMem(4 bytes @ 0xE000201C) -- CPU_WriteMem(4 bytes @ 0xE0001004) (0010ms, 0770ms total)
T13A4 001:117 JLINK_IsHalted() -- CPU_ReadMem(2 bytes @ 0x20000000)  returns TRUE (0005ms, 0775ms total)
T13A4 001:122 JLINK_ReadReg(R15 (PC))  returns 0x20000000 (0001ms, 0771ms total)
T13A4 001:123 JLINK_ClrBPEx(BPHandle = 0x00000001)  returns 0x00 (0000ms, 0771ms total)
T13A4 001:123 JLINK_ReadReg(R0)  returns 0x00000000 (0000ms, 0771ms total)
T13A4 001:123 JLINK_WriteReg(R0, 0x08000000)  returns 0x00 (0000ms, 0771ms total)
T13A4 001:123 JLINK_WriteReg(R1, 0x00004000)  returns 0x00 (0000ms, 0771ms total)
T13A4 001:123 JLINK_WriteReg(R2, 0x000000FF)  returns 0x00 (0000ms, 0771ms total)
T13A4 001:123 JLINK_WriteReg(R3, 0x00000000)  returns 0x00 (0000ms, 0771ms total)
T13A4 001:123 JLINK_WriteReg(R4, 0x00000000)  returns 0x00 (0000ms, 0771ms total)
T13A4 001:123 JLINK_WriteReg(R5, 0x00000000)  returns 0x00 (0000ms, 0771ms total)
T13A4 001:123 JLINK_WriteReg(R6, 0x00000000)  returns 0x00 (0000ms, 0771ms total)
T13A4 001:123 JLINK_WriteReg(R7, 0x00000000)  returns 0x00 (0000ms, 0771ms total)
T13A4 001:123 JLINK_WriteReg(R8, 0x00000000)  returns 0x00 (0000ms, 0771ms total)
T13A4 001:123 JLINK_WriteReg(R9, 0x20000194)  returns 0x00 (0000ms, 0771ms total)
T13A4 001:123 JLINK_WriteReg(R10, 0x00000000)  returns 0x00 (0000ms, 0771ms total)
T13A4 001:123 JLINK_WriteReg(R11, 0x00000000)  returns 0x00 (0000ms, 0771ms total)
T13A4 001:123 JLINK_WriteReg(R12, 0x00000000)  returns 0x00 (0000ms, 0771ms total)
T13A4 001:123 JLINK_WriteReg(R13 (SP), 0x20000800)  returns 0x00 (0000ms, 0771ms total)
T13A4 001:123 JLINK_WriteReg(R14, 0x20000001)  returns 0x00 (0000ms, 0771ms total)
T13A4 001:123 JLINK_WriteReg(R15 (PC), 0x20000020)  returns 0x00 (0000ms, 0771ms total)
T13A4 001:123 JLINK_WriteReg(XPSR, 0x01000000)  returns 0x00 (0000ms, 0771ms total)
T13A4 001:123 JLINK_WriteReg(MSP, 0x20000800)  returns 0x00 (0000ms, 0771ms total)
T13A4 001:123 JLINK_WriteReg(PSP, 0x20000800)  returns 0x00 (0000ms, 0771ms total)
T13A4 001:123 JLINK_WriteReg(CFBP, 0x00000000)  returns 0x00 (0000ms, 0771ms total)
T13A4 001:123 JLINK_SetBPEx(Addr = 0x20000000, Type = 0xFFFFFFF2)  returns 0x00000002 (0000ms, 0771ms total)
T13A4 001:123 JLINK_Go() (0002ms, 0773ms total)
T13A4 001:125 JLINK_IsHalted()  returns FALSE (0001ms, 0774ms total)
T13A4 001:157 JLINK_IsHalted() -- CPU_ReadMem(2 bytes @ 0x20000000)  returns TRUE (0005ms, 0778ms total)
T13A4 001:162 JLINK_ReadReg(R15 (PC))  returns 0x20000000 (0000ms, 0773ms total)
T13A4 001:162 JLINK_ClrBPEx(BPHandle = 0x00000002)  returns 0x00 (0000ms, 0773ms total)
T13A4 001:162 JLINK_ReadReg(R0)  returns 0x00000000 (0000ms, 0773ms total)
T13A4 001:163 JLINK_WriteReg(R0, 0x08004000)  returns 0x00 (0000ms, 0773ms total)
T13A4 001:163 JLINK_WriteReg(R1, 0x00004000)  returns 0x00 (0000ms, 0773ms total)
T13A4 001:163 JLINK_WriteReg(R2, 0x000000FF)  returns 0x00 (0000ms, 0773ms total)
T13A4 001:163 JLINK_WriteReg(R3, 0x00000000)  returns 0x00 (0000ms, 0773ms total)
T13A4 001:163 JLINK_WriteReg(R4, 0x00000000)  returns 0x00 (0000ms, 0773ms total)
T13A4 001:163 JLINK_WriteReg(R5, 0x00000000)  returns 0x00 (0000ms, 0773ms total)
T13A4 001:163 JLINK_WriteReg(R6, 0x00000000)  returns 0x00 (0000ms, 0773ms total)
T13A4 001:163 JLINK_WriteReg(R7, 0x00000000)  returns 0x00 (0000ms, 0773ms total)
T13A4 001:163 JLINK_WriteReg(R8, 0x00000000)  returns 0x00 (0000ms, 0773ms total)
T13A4 001:163 JLINK_WriteReg(R9, 0x20000194)  returns 0x00 (0000ms, 0773ms total)
T13A4 001:163 JLINK_WriteReg(R10, 0x00000000)  returns 0x00 (0000ms, 0773ms total)
T13A4 001:163 JLINK_WriteReg(R11, 0x00000000)  returns 0x00 (0000ms, 0773ms total)
T13A4 001:163 JLINK_WriteReg(R12, 0x00000000)  returns 0x00 (0000ms, 0773ms total)
T13A4 001:163 JLINK_WriteReg(R13 (SP), 0x20000800)  returns 0x00 (0000ms, 0773ms total)
T13A4 001:163 JLINK_WriteReg(R14, 0x20000001)  returns 0x00 (0000ms, 0773ms total)
T13A4 001:163 JLINK_WriteReg(R15 (PC), 0x20000020)  returns 0x00 (0000ms, 0773ms total)
T13A4 001:163 JLINK_WriteReg(XPSR, 0x01000000)  returns 0x00 (0000ms, 0773ms total)
T13A4 001:163 JLINK_WriteReg(MSP, 0x20000800)  returns 0x00 (0001ms, 0774ms total)
T13A4 001:164 JLINK_WriteReg(PSP, 0x20000800)  returns 0x00 (0000ms, 0774ms total)
T13A4 001:164 JLINK_WriteReg(CFBP, 0x00000000)  returns 0x00 (0000ms, 0774ms total)
T13A4 001:164 JLINK_SetBPEx(Addr = 0x20000000, Type = 0xFFFFFFF2)  returns 0x00000003 (0000ms, 0774ms total)
T13A4 001:164 JLINK_Go() (0002ms, 0776ms total)
T13A4 001:166 JLINK_IsHalted()  returns FALSE (0001ms, 0777ms total)
T13A4 001:170 JLINK_IsHalted()  returns FALSE (0001ms, 0777ms total)
T13A4 001:172 JLINK_IsHalted()  returns FALSE (0001ms, 0777ms total)
T13A4 001:174 JLINK_IsHalted()  returns FALSE (0001ms, 0777ms total)
T13A4 001:176 JLINK_IsHalted()  returns FALSE (0001ms, 0777ms total)
T13A4 001:178 JLINK_IsHalted()  returns FALSE (0001ms, 0777ms total)
T13A4 001:180 JLINK_IsHalted() -- CPU_ReadMem(2 bytes @ 0x20000000)  returns TRUE (0005ms, 0781ms total)
T13A4 001:185 JLINK_ReadReg(R15 (PC))  returns 0x20000000 (0000ms, 0776ms total)
T13A4 001:185 JLINK_ClrBPEx(BPHandle = 0x00000003)  returns 0x00 (0000ms, 0776ms total)
T13A4 001:185 JLINK_ReadReg(R0)  returns 0x00000000 (0000ms, 0776ms total)
T13A4 001:186 JLINK_WriteReg(R0, 0x08008000)  returns 0x00 (0000ms, 0776ms total)
T13A4 001:186 JLINK_WriteReg(R1, 0x00004000)  returns 0x00 (0000ms, 0776ms total)
T13A4 001:186 JLINK_WriteReg(R2, 0x000000FF)  returns 0x00 (0000ms, 0776ms total)
T13A4 001:186 JLINK_WriteReg(R3, 0x00000000)  returns 0x00 (0000ms, 0776ms total)
T13A4 001:186 JLINK_WriteReg(R4, 0x00000000)  returns 0x00 (0000ms, 0776ms total)
T13A4 001:186 JLINK_WriteReg(R5, 0x00000000)  returns 0x00 (0000ms, 0776ms total)
T13A4 001:186 JLINK_WriteReg(R6, 0x00000000)  returns 0x00 (0000ms, 0776ms total)
T13A4 001:186 JLINK_WriteReg(R7, 0x00000000)  returns 0x00 (0000ms, 0776ms total)
T13A4 001:186 JLINK_WriteReg(R8, 0x00000000)  returns 0x00 (0000ms, 0776ms total)
T13A4 001:186 JLINK_WriteReg(R9, 0x20000194)  returns 0x00 (0000ms, 0776ms total)
T13A4 001:186 JLINK_WriteReg(R10, 0x00000000)  returns 0x00 (0000ms, 0776ms total)
T13A4 001:186 JLINK_WriteReg(R11, 0x00000000)  returns 0x00 (0000ms, 0776ms total)
T13A4 001:186 JLINK_WriteReg(R12, 0x00000000)  returns 0x00 (0000ms, 0776ms total)
T13A4 001:186 JLINK_WriteReg(R13 (SP), 0x20000800)  returns 0x00 (0000ms, 0776ms total)
T13A4 001:186 JLINK_WriteReg(R14, 0x20000001)  returns 0x00 (0000ms, 0776ms total)
T13A4 001:186 JLINK_WriteReg(R15 (PC), 0x20000020)  returns 0x00 (0000ms, 0776ms total)
T13A4 001:186 JLINK_WriteReg(XPSR, 0x01000000)  returns 0x00 (0000ms, 0776ms total)
T13A4 001:186 JLINK_WriteReg(MSP, 0x20000800)  returns 0x00 (0000ms, 0776ms total)
T13A4 001:186 JLINK_WriteReg(PSP, 0x20000800)  returns 0x00 (0000ms, 0776ms total)
T13A4 001:186 JLINK_WriteReg(CFBP, 0x00000000)  returns 0x00 (0000ms, 0776ms total)
T13A4 001:186 JLINK_SetBPEx(Addr = 0x20000000, Type = 0xFFFFFFF2)  returns 0x00000004 (0000ms, 0776ms total)
T13A4 001:186 JLINK_Go() (0002ms, 0778ms total)
T13A4 001:188 JLINK_IsHalted()  returns FALSE (0001ms, 0779ms total)
T13A4 001:192 JLINK_IsHalted()  returns FALSE (0001ms, 0779ms total)
T13A4 001:194 JLINK_IsHalted()  returns FALSE (0001ms, 0779ms total)
T13A4 001:196 JLINK_IsHalted()  returns FALSE (0001ms, 0779ms total)
T13A4 001:198 JLINK_IsHalted()  returns FALSE (0001ms, 0779ms total)
T13A4 001:200 JLINK_IsHalted()  returns FALSE (0001ms, 0779ms total)
T13A4 001:202 JLINK_IsHalted()  returns FALSE (0001ms, 0779ms total)
T13A4 001:204 JLINK_IsHalted() -- CPU_ReadMem(2 bytes @ 0x20000000)  returns TRUE (0005ms, 0783ms total)
T13A4 001:209 JLINK_ReadReg(R15 (PC))  returns 0x20000000 (0000ms, 0778ms total)
T13A4 001:209 JLINK_ClrBPEx(BPHandle = 0x00000004)  returns 0x00 (0000ms, 0778ms total)
T13A4 001:209 JLINK_ReadReg(R0)  returns 0x00000000 (0000ms, 0778ms total)
T13A4 001:210 JLINK_WriteReg(R0, 0x00000001)  returns 0x00 (0000ms, 0778ms total)
T13A4 001:210 JLINK_WriteReg(R1, 0x00004000)  returns 0x00 (0000ms, 0778ms total)
T13A4 001:210 JLINK_WriteReg(R2, 0x000000FF)  returns 0x00 (0000ms, 0778ms total)
T13A4 001:210 JLINK_WriteReg(R3, 0x00000000)  returns 0x00 (0000ms, 0778ms total)
T13A4 001:210 JLINK_WriteReg(R4, 0x00000000)  returns 0x00 (0000ms, 0778ms total)
T13A4 001:210 JLINK_WriteReg(R5, 0x00000000)  returns 0x00 (0000ms, 0778ms total)
T13A4 001:210 JLINK_WriteReg(R6, 0x00000000)  returns 0x00 (0000ms, 0778ms total)
T13A4 001:210 JLINK_WriteReg(R7, 0x00000000)  returns 0x00 (0000ms, 0778ms total)
T13A4 001:210 JLINK_WriteReg(R8, 0x00000000)  returns 0x00 (0000ms, 0778ms total)
T13A4 001:210 JLINK_WriteReg(R9, 0x20000194)  returns 0x00 (0000ms, 0778ms total)
T13A4 001:210 JLINK_WriteReg(R10, 0x00000000)  returns 0x00 (0000ms, 0778ms total)
T13A4 001:210 JLINK_WriteReg(R11, 0x00000000)  returns 0x00 (0000ms, 0778ms total)
T13A4 001:210 JLINK_WriteReg(R12, 0x00000000)  returns 0x00 (0000ms, 0778ms total)
T13A4 001:210 JLINK_WriteReg(R13 (SP), 0x20000800)  returns 0x00 (0000ms, 0778ms total)
T13A4 001:210 JLINK_WriteReg(R14, 0x20000001)  returns 0x00 (0000ms, 0778ms total)
T13A4 001:210 JLINK_WriteReg(R15 (PC), 0x2000008C)  returns 0x00 (0000ms, 0778ms total)
T13A4 001:210 JLINK_WriteReg(XPSR, 0x01000000)  returns 0x00 (0000ms, 0778ms total)
T13A4 001:210 JLINK_WriteReg(MSP, 0x20000800)  returns 0x00 (0000ms, 0778ms total)
T13A4 001:210 JLINK_WriteReg(PSP, 0x20000800)  returns 0x00 (0000ms, 0778ms total)
T13A4 001:210 JLINK_WriteReg(CFBP, 0x00000000)  returns 0x00 (0000ms, 0778ms total)
T13A4 001:210 JLINK_SetBPEx(Addr = 0x20000000, Type = 0xFFFFFFF2)  returns 0x00000005 (0000ms, 0778ms total)
T13A4 001:210 JLINK_Go() (0002ms, 0780ms total)
T13A4 001:212 JLINK_IsHalted() -- CPU_ReadMem(2 bytes @ 0x20000000)  returns TRUE (0006ms, 0786ms total)
T13A4 001:218 JLINK_ReadReg(R15 (PC))  returns 0x20000000 (0000ms, 0780ms total)
T13A4 001:218 JLINK_ClrBPEx(BPHandle = 0x00000005)  returns 0x00 (0000ms, 0780ms total)
T13A4 001:218 JLINK_ReadReg(R0)  returns 0x00000000 (0000ms, 0780ms total)
T13A4 001:273 JLINK_WriteMem(0x20000000, 0x0198 Bytes, ...) - Data: 00 BE 0A E0 0D 78 2D 06 68 40 08 24 40 00 00 D3 ... -- CPU_WriteMem(408 bytes @ 0x20000000)  returns 0x198 (0003ms, 0783ms total)
T13A4 001:276 JLINK_WriteReg(R0, 0x08000000)  returns 0x00 (0000ms, 0783ms total)
T13A4 001:276 JLINK_WriteReg(R1, 0x00B71B00)  returns 0x00 (0000ms, 0783ms total)
T13A4 001:276 JLINK_WriteReg(R2, 0x00000002)  returns 0x00 (0000ms, 0783ms total)
T13A4 001:276 JLINK_WriteReg(R3, 0x00000000)  returns 0x00 (0000ms, 0783ms total)
T13A4 001:276 JLINK_WriteReg(R4, 0x00000000)  returns 0x00 (0000ms, 0783ms total)
T13A4 001:276 JLINK_WriteReg(R5, 0x00000000)  returns 0x00 (0000ms, 0783ms total)
T13A4 001:276 JLINK_WriteReg(R6, 0x00000000)  returns 0x00 (0000ms, 0783ms total)
T13A4 001:276 JLINK_WriteReg(R7, 0x00000000)  returns 0x00 (0000ms, 0783ms total)
T13A4 001:276 JLINK_WriteReg(R8, 0x00000000)  returns 0x00 (0000ms, 0783ms total)
T13A4 001:276 JLINK_WriteReg(R9, 0x20000194)  returns 0x00 (0000ms, 0783ms total)
T13A4 001:276 JLINK_WriteReg(R10, 0x00000000)  returns 0x00 (0000ms, 0783ms total)
T13A4 001:276 JLINK_WriteReg(R11, 0x00000000)  returns 0x00 (0000ms, 0783ms total)
T13A4 001:276 JLINK_WriteReg(R12, 0x00000000)  returns 0x00 (0000ms, 0783ms total)
T13A4 001:276 JLINK_WriteReg(R13 (SP), 0x20000800)  returns 0x00 (0000ms, 0783ms total)
T13A4 001:276 JLINK_WriteReg(R14, 0x20000001)  returns 0x00 (0000ms, 0783ms total)
T13A4 001:276 JLINK_WriteReg(R15 (PC), 0x2000005E)  returns 0x00 (0000ms, 0783ms total)
T13A4 001:276 JLINK_WriteReg(XPSR, 0x01000000)  returns 0x00 (0000ms, 0783ms total)
T13A4 001:276 JLINK_WriteReg(MSP, 0x20000800)  returns 0x00 (0000ms, 0783ms total)
T13A4 001:276 JLINK_WriteReg(PSP, 0x20000800)  returns 0x00 (0000ms, 0783ms total)
T13A4 001:276 JLINK_WriteReg(CFBP, 0x00000000)  returns 0x00 (0000ms, 0783ms total)
T13A4 001:276 JLINK_SetBPEx(Addr = 0x20000000, Type = 0xFFFFFFF2) -- CPU_ReadMem(2 bytes @ 0x20000000)  returns 0x00000006 (0001ms, 0784ms total)
T13A4 001:277 JLINK_Go() -- CPU_WriteMem(2 bytes @ 0x20000000) (0003ms, 0787ms total)
T13A4 001:280 JLINK_IsHalted() -- CPU_ReadMem(2 bytes @ 0x20000000)  returns TRUE (0006ms, 0793ms total)
T13A4 001:286 JLINK_ReadReg(R15 (PC))  returns 0x20000000 (0000ms, 0787ms total)
T13A4 001:286 JLINK_ClrBPEx(BPHandle = 0x00000006)  returns 0x00 (0000ms, 0787ms total)
T13A4 001:286 JLINK_ReadReg(R0)  returns 0x00000000 (0000ms, 0787ms total)
T13A4 001:286 JLINK_WriteMem(0x20000198, 0x0400 Bytes, ...) - Data: 98 FB 00 20 C1 01 00 08 9D 18 00 08 D5 16 00 08 ... -- CPU_WriteMem(1024 bytes @ 0x20000198)  returns 0x400 (0006ms, 0793ms total)
T13A4 001:292 JLINK_WriteReg(R0, 0x08000000)  returns 0x00 (0000ms, 0793ms total)
T13A4 001:292 JLINK_WriteReg(R1, 0x00000400)  returns 0x00 (0000ms, 0793ms total)
T13A4 001:292 JLINK_WriteReg(R2, 0x20000198)  returns 0x00 (0000ms, 0793ms total)
T13A4 001:292 JLINK_WriteReg(R3, 0x00000000)  returns 0x00 (0000ms, 0793ms total)
T13A4 001:292 JLINK_WriteReg(R4, 0x00000000)  returns 0x00 (0000ms, 0793ms total)
T13A4 001:292 JLINK_WriteReg(R5, 0x00000000)  returns 0x00 (0000ms, 0793ms total)
T13A4 001:292 JLINK_WriteReg(R6, 0x00000000)  returns 0x00 (0000ms, 0793ms total)
T13A4 001:292 JLINK_WriteReg(R7, 0x00000000)  returns 0x00 (0000ms, 0793ms total)
T13A4 001:292 JLINK_WriteReg(R8, 0x00000000)  returns 0x00 (0000ms, 0793ms total)
T13A4 001:292 JLINK_WriteReg(R9, 0x20000194)  returns 0x00 (0000ms, 0793ms total)
T13A4 001:292 JLINK_WriteReg(R10, 0x00000000)  returns 0x00 (0000ms, 0793ms total)
T13A4 001:292 JLINK_WriteReg(R11, 0x00000000)  returns 0x00 (0000ms, 0793ms total)
T13A4 001:292 JLINK_WriteReg(R12, 0x00000000)  returns 0x00 (0000ms, 0793ms total)
T13A4 001:292 JLINK_WriteReg(R13 (SP), 0x20000800)  returns 0x00 (0000ms, 0793ms total)
T13A4 001:292 JLINK_WriteReg(R14, 0x20000001)  returns 0x00 (0000ms, 0793ms total)
T13A4 001:292 JLINK_WriteReg(R15 (PC), 0x20000120)  returns 0x00 (0000ms, 0793ms total)
T13A4 001:292 JLINK_WriteReg(XPSR, 0x01000000)  returns 0x00 (0000ms, 0793ms total)
T13A4 001:292 JLINK_WriteReg(MSP, 0x20000800)  returns 0x00 (0000ms, 0793ms total)
T13A4 001:292 JLINK_WriteReg(PSP, 0x20000800)  returns 0x00 (0000ms, 0793ms total)
T13A4 001:292 JLINK_WriteReg(CFBP, 0x00000000)  returns 0x00 (0000ms, 0793ms total)
T13A4 001:292 JLINK_SetBPEx(Addr = 0x20000000, Type = 0xFFFFFFF2)  returns 0x00000007 (0000ms, 0793ms total)
T13A4 001:292 JLINK_Go() (0002ms, 0795ms total)
T13A4 001:294 JLINK_IsHalted()  returns FALSE (0001ms, 0796ms total)
T13A4 001:308 JLINK_IsHalted() -- CPU_ReadMem(2 bytes @ 0x20000000)  returns TRUE (0005ms, 0800ms total)
T13A4 001:313 JLINK_ReadReg(R15 (PC))  returns 0x20000000 (0000ms, 0795ms total)
T13A4 001:313 JLINK_ClrBPEx(BPHandle = 0x00000007)  returns 0x00 (0000ms, 0795ms total)
T13A4 001:313 JLINK_ReadReg(R0)  returns 0x00000000 (0000ms, 0795ms total)
T13A4 001:314 JLINK_WriteMem(0x20000198, 0x0400 Bytes, ...) - Data: 40 F0 02 00 01 E0 20 F0 02 00 88 61 70 47 00 00 ... -- CPU_WriteMem(1024 bytes @ 0x20000198)  returns 0x400 (0006ms, 0801ms total)
T13A4 001:320 JLINK_WriteReg(R0, 0x08000400)  returns 0x00 (0000ms, 0801ms total)
T13A4 001:320 JLINK_WriteReg(R1, 0x00000400)  returns 0x00 (0000ms, 0801ms total)
T13A4 001:320 JLINK_WriteReg(R2, 0x20000198)  returns 0x00 (0000ms, 0801ms total)
T13A4 001:320 JLINK_WriteReg(R3, 0x00000000)  returns 0x00 (0000ms, 0801ms total)
T13A4 001:320 JLINK_WriteReg(R4, 0x00000000)  returns 0x00 (0000ms, 0801ms total)
T13A4 001:320 JLINK_WriteReg(R5, 0x00000000)  returns 0x00 (0000ms, 0801ms total)
T13A4 001:320 JLINK_WriteReg(R6, 0x00000000)  returns 0x00 (0000ms, 0801ms total)
T13A4 001:320 JLINK_WriteReg(R7, 0x00000000)  returns 0x00 (0000ms, 0801ms total)
T13A4 001:320 JLINK_WriteReg(R8, 0x00000000)  returns 0x00 (0000ms, 0801ms total)
T13A4 001:320 JLINK_WriteReg(R9, 0x20000194)  returns 0x00 (0000ms, 0801ms total)
T13A4 001:320 JLINK_WriteReg(R10, 0x00000000)  returns 0x00 (0000ms, 0801ms total)
T13A4 001:320 JLINK_WriteReg(R11, 0x00000000)  returns 0x00 (0000ms, 0801ms total)
T13A4 001:320 JLINK_WriteReg(R12, 0x00000000)  returns 0x00 (0000ms, 0801ms total)
T13A4 001:320 JLINK_WriteReg(R13 (SP), 0x20000800)  returns 0x00 (0000ms, 0801ms total)
T13A4 001:320 JLINK_WriteReg(R14, 0x20000001)  returns 0x00 (0000ms, 0801ms total)
T13A4 001:320 JLINK_WriteReg(R15 (PC), 0x20000120)  returns 0x00 (0000ms, 0801ms total)
T13A4 001:320 JLINK_WriteReg(XPSR, 0x01000000)  returns 0x00 (0000ms, 0801ms total)
T13A4 001:320 JLINK_WriteReg(MSP, 0x20000800)  returns 0x00 (0000ms, 0801ms total)
T13A4 001:320 JLINK_WriteReg(PSP, 0x20000800)  returns 0x00 (0000ms, 0801ms total)
T13A4 001:320 JLINK_WriteReg(CFBP, 0x00000000)  returns 0x00 (0000ms, 0801ms total)
T13A4 001:320 JLINK_SetBPEx(Addr = 0x20000000, Type = 0xFFFFFFF2)  returns 0x00000008 (0000ms, 0801ms total)
T13A4 001:320 JLINK_Go() (0002ms, 0803ms total)
T13A4 001:322 JLINK_IsHalted()  returns FALSE (0001ms, 0804ms total)
T13A4 001:325 JLINK_IsHalted()  returns FALSE (0001ms, 0804ms total)
T13A4 001:327 JLINK_IsHalted() -- CPU_ReadMem(2 bytes @ 0x20000000)  returns TRUE (0006ms, 0809ms total)
T13A4 001:333 JLINK_ReadReg(R15 (PC))  returns 0x20000000 (0000ms, 0803ms total)
T13A4 001:333 JLINK_ClrBPEx(BPHandle = 0x00000008)  returns 0x00 (0000ms, 0803ms total)
T13A4 001:333 JLINK_ReadReg(R0)  returns 0x00000000 (0000ms, 0803ms total)
T13A4 001:335 JLINK_WriteMem(0x20000198, 0x0400 Bytes, ...) - Data: E9 FD BD E8 10 40 4F F4 80 30 FF F7 E3 BD 00 00 ... -- CPU_WriteMem(1024 bytes @ 0x20000198)  returns 0x400 (0006ms, 0809ms total)
T13A4 001:341 JLINK_WriteReg(R0, 0x08000800)  returns 0x00 (0000ms, 0809ms total)
T13A4 001:341 JLINK_WriteReg(R1, 0x00000400)  returns 0x00 (0000ms, 0809ms total)
T13A4 001:341 JLINK_WriteReg(R2, 0x20000198)  returns 0x00 (0000ms, 0809ms total)
T13A4 001:341 JLINK_WriteReg(R3, 0x00000000)  returns 0x00 (0000ms, 0809ms total)
T13A4 001:341 JLINK_WriteReg(R4, 0x00000000)  returns 0x00 (0000ms, 0809ms total)
T13A4 001:341 JLINK_WriteReg(R5, 0x00000000)  returns 0x00 (0000ms, 0809ms total)
T13A4 001:341 JLINK_WriteReg(R6, 0x00000000)  returns 0x00 (0000ms, 0809ms total)
T13A4 001:341 JLINK_WriteReg(R7, 0x00000000)  returns 0x00 (0000ms, 0809ms total)
T13A4 001:341 JLINK_WriteReg(R8, 0x00000000)  returns 0x00 (0000ms, 0809ms total)
T13A4 001:341 JLINK_WriteReg(R9, 0x20000194)  returns 0x00 (0000ms, 0809ms total)
T13A4 001:341 JLINK_WriteReg(R10, 0x00000000)  returns 0x00 (0000ms, 0809ms total)
T13A4 001:341 JLINK_WriteReg(R11, 0x00000000)  returns 0x00 (0000ms, 0809ms total)
T13A4 001:341 JLINK_WriteReg(R12, 0x00000000)  returns 0x00 (0000ms, 0809ms total)
T13A4 001:341 JLINK_WriteReg(R13 (SP), 0x20000800)  returns 0x00 (0000ms, 0809ms total)
T13A4 001:341 JLINK_WriteReg(R14, 0x20000001)  returns 0x00 (0000ms, 0809ms total)
T13A4 001:341 JLINK_WriteReg(R15 (PC), 0x20000120)  returns 0x00 (0000ms, 0809ms total)
T13A4 001:341 JLINK_WriteReg(XPSR, 0x01000000)  returns 0x00 (0000ms, 0809ms total)
T13A4 001:341 JLINK_WriteReg(MSP, 0x20000800)  returns 0x00 (0000ms, 0809ms total)
T13A4 001:341 JLINK_WriteReg(PSP, 0x20000800)  returns 0x00 (0000ms, 0809ms total)
T13A4 001:341 JLINK_WriteReg(CFBP, 0x00000000)  returns 0x00 (0000ms, 0809ms total)
T13A4 001:341 JLINK_SetBPEx(Addr = 0x20000000, Type = 0xFFFFFFF2)  returns 0x00000009 (0000ms, 0809ms total)
T13A4 001:341 JLINK_Go() (0003ms, 0812ms total)
T13A4 001:344 JLINK_IsHalted()  returns FALSE (0001ms, 0813ms total)
T13A4 001:347 JLINK_IsHalted()  returns FALSE (0001ms, 0813ms total)
T13A4 001:349 JLINK_IsHalted() -- CPU_ReadMem(2 bytes @ 0x20000000)  returns TRUE (0006ms, 0818ms total)
T13A4 001:355 JLINK_ReadReg(R15 (PC))  returns 0x20000000 (0000ms, 0812ms total)
T13A4 001:355 JLINK_ClrBPEx(BPHandle = 0x00000009)  returns 0x00 (0000ms, 0812ms total)
T13A4 001:355 JLINK_ReadReg(R0)  returns 0x00000000 (0000ms, 0812ms total)
T13A4 001:355 JLINK_WriteMem(0x20000198, 0x0400 Bytes, ...) - Data: 00 F0 E2 F9 0A 22 14 21 20 46 00 F0 DD F9 00 22 ... -- CPU_WriteMem(1024 bytes @ 0x20000198)  returns 0x400 (0006ms, 0818ms total)
T13A4 001:361 JLINK_WriteReg(R0, 0x08000C00)  returns 0x00 (0000ms, 0818ms total)
T13A4 001:361 JLINK_WriteReg(R1, 0x00000400)  returns 0x00 (0000ms, 0818ms total)
T13A4 001:361 JLINK_WriteReg(R2, 0x20000198)  returns 0x00 (0000ms, 0818ms total)
T13A4 001:361 JLINK_WriteReg(R3, 0x00000000)  returns 0x00 (0000ms, 0818ms total)
T13A4 001:361 JLINK_WriteReg(R4, 0x00000000)  returns 0x00 (0000ms, 0818ms total)
T13A4 001:361 JLINK_WriteReg(R5, 0x00000000)  returns 0x00 (0000ms, 0818ms total)
T13A4 001:361 JLINK_WriteReg(R6, 0x00000000)  returns 0x00 (0000ms, 0818ms total)
T13A4 001:361 JLINK_WriteReg(R7, 0x00000000)  returns 0x00 (0000ms, 0818ms total)
T13A4 001:361 JLINK_WriteReg(R8, 0x00000000)  returns 0x00 (0000ms, 0818ms total)
T13A4 001:361 JLINK_WriteReg(R9, 0x20000194)  returns 0x00 (0000ms, 0818ms total)
T13A4 001:361 JLINK_WriteReg(R10, 0x00000000)  returns 0x00 (0000ms, 0818ms total)
T13A4 001:361 JLINK_WriteReg(R11, 0x00000000)  returns 0x00 (0000ms, 0818ms total)
T13A4 001:361 JLINK_WriteReg(R12, 0x00000000)  returns 0x00 (0000ms, 0818ms total)
T13A4 001:362 JLINK_WriteReg(R13 (SP), 0x20000800)  returns 0x00 (0000ms, 0819ms total)
T13A4 001:362 JLINK_WriteReg(R14, 0x20000001)  returns 0x00 (0000ms, 0819ms total)
T13A4 001:362 JLINK_WriteReg(R15 (PC), 0x20000120)  returns 0x00 (0000ms, 0819ms total)
T13A4 001:362 JLINK_WriteReg(XPSR, 0x01000000)  returns 0x00 (0000ms, 0819ms total)
T13A4 001:362 JLINK_WriteReg(MSP, 0x20000800)  returns 0x00 (0000ms, 0819ms total)
T13A4 001:362 JLINK_WriteReg(PSP, 0x20000800)  returns 0x00 (0000ms, 0819ms total)
T13A4 001:362 JLINK_WriteReg(CFBP, 0x00000000)  returns 0x00 (0000ms, 0819ms total)
T13A4 001:362 JLINK_SetBPEx(Addr = 0x20000000, Type = 0xFFFFFFF2)  returns 0x0000000A (0000ms, 0819ms total)
T13A4 001:362 JLINK_Go() (0002ms, 0821ms total)
T13A4 001:364 JLINK_IsHalted()  returns FALSE (0001ms, 0822ms total)
T13A4 001:374 JLINK_IsHalted() -- CPU_ReadMem(2 bytes @ 0x20000000)  returns TRUE (0006ms, 0827ms total)
T13A4 001:380 JLINK_ReadReg(R15 (PC))  returns 0x20000000 (0000ms, 0821ms total)
T13A4 001:380 JLINK_ClrBPEx(BPHandle = 0x0000000A)  returns 0x00 (0000ms, 0821ms total)
T13A4 001:380 JLINK_ReadReg(R0)  returns 0x00000000 (0000ms, 0821ms total)
T13A4 001:380 JLINK_WriteMem(0x20000198, 0x0400 Bytes, ...) - Data: 00 99 81 42 F6 D3 00 99 81 42 01 D1 00 20 38 BD ... -- CPU_WriteMem(1024 bytes @ 0x20000198)  returns 0x400 (0007ms, 0828ms total)
T13A4 001:387 JLINK_WriteReg(R0, 0x08001000)  returns 0x00 (0000ms, 0828ms total)
T13A4 001:387 JLINK_WriteReg(R1, 0x00000400)  returns 0x00 (0000ms, 0828ms total)
T13A4 001:387 JLINK_WriteReg(R2, 0x20000198)  returns 0x00 (0000ms, 0828ms total)
T13A4 001:387 JLINK_WriteReg(R3, 0x00000000)  returns 0x00 (0000ms, 0828ms total)
T13A4 001:387 JLINK_WriteReg(R4, 0x00000000)  returns 0x00 (0000ms, 0828ms total)
T13A4 001:387 JLINK_WriteReg(R5, 0x00000000)  returns 0x00 (0000ms, 0828ms total)
T13A4 001:387 JLINK_WriteReg(R6, 0x00000000)  returns 0x00 (0000ms, 0828ms total)
T13A4 001:387 JLINK_WriteReg(R7, 0x00000000)  returns 0x00 (0000ms, 0828ms total)
T13A4 001:387 JLINK_WriteReg(R8, 0x00000000)  returns 0x00 (0000ms, 0828ms total)
T13A4 001:387 JLINK_WriteReg(R9, 0x20000194)  returns 0x00 (0000ms, 0828ms total)
T13A4 001:387 JLINK_WriteReg(R10, 0x00000000)  returns 0x00 (0000ms, 0828ms total)
T13A4 001:387 JLINK_WriteReg(R11, 0x00000000)  returns 0x00 (0000ms, 0828ms total)
T13A4 001:387 JLINK_WriteReg(R12, 0x00000000)  returns 0x00 (0000ms, 0828ms total)
T13A4 001:387 JLINK_WriteReg(R13 (SP), 0x20000800)  returns 0x00 (0000ms, 0828ms total)
T13A4 001:387 JLINK_WriteReg(R14, 0x20000001)  returns 0x00 (0000ms, 0828ms total)
T13A4 001:387 JLINK_WriteReg(R15 (PC), 0x20000120)  returns 0x00 (0000ms, 0828ms total)
T13A4 001:387 JLINK_WriteReg(XPSR, 0x01000000)  returns 0x00 (0000ms, 0828ms total)
T13A4 001:387 JLINK_WriteReg(MSP, 0x20000800)  returns 0x00 (0000ms, 0828ms total)
T13A4 001:387 JLINK_WriteReg(PSP, 0x20000800)  returns 0x00 (0000ms, 0828ms total)
T13A4 001:387 JLINK_WriteReg(CFBP, 0x00000000)  returns 0x00 (0000ms, 0828ms total)
T13A4 001:387 JLINK_SetBPEx(Addr = 0x20000000, Type = 0xFFFFFFF2)  returns 0x0000000B (0000ms, 0828ms total)
T13A4 001:387 JLINK_Go() (0003ms, 0831ms total)
T13A4 001:390 JLINK_IsHalted()  returns FALSE (0001ms, 0832ms total)
T13A4 001:396 JLINK_IsHalted() -- CPU_ReadMem(2 bytes @ 0x20000000)  returns TRUE (0006ms, 0837ms total)
T13A4 001:402 JLINK_ReadReg(R15 (PC))  returns 0x20000000 (0000ms, 0831ms total)
T13A4 001:402 JLINK_ClrBPEx(BPHandle = 0x0000000B)  returns 0x00 (0000ms, 0831ms total)
T13A4 001:402 JLINK_ReadReg(R0)  returns 0x00000000 (0000ms, 0831ms total)
T13A4 001:403 JLINK_WriteMem(0x20000198, 0x0400 Bytes, ...) - Data: 0E 0C C0 F8 08 C0 D0 F8 04 C0 2C EA 02 0C C0 F8 ... -- CPU_WriteMem(1024 bytes @ 0x20000198)  returns 0x400 (0006ms, 0837ms total)
T13A4 001:409 JLINK_WriteReg(R0, 0x08001400)  returns 0x00 (0000ms, 0837ms total)
T13A4 001:409 JLINK_WriteReg(R1, 0x00000400)  returns 0x00 (0000ms, 0837ms total)
T13A4 001:409 JLINK_WriteReg(R2, 0x20000198)  returns 0x00 (0000ms, 0837ms total)
T13A4 001:409 JLINK_WriteReg(R3, 0x00000000)  returns 0x00 (0000ms, 0837ms total)
T13A4 001:409 JLINK_WriteReg(R4, 0x00000000)  returns 0x00 (0000ms, 0837ms total)
T13A4 001:409 JLINK_WriteReg(R5, 0x00000000)  returns 0x00 (0000ms, 0837ms total)
T13A4 001:409 JLINK_WriteReg(R6, 0x00000000)  returns 0x00 (0000ms, 0837ms total)
T13A4 001:409 JLINK_WriteReg(R7, 0x00000000)  returns 0x00 (0000ms, 0837ms total)
T13A4 001:409 JLINK_WriteReg(R8, 0x00000000)  returns 0x00 (0000ms, 0837ms total)
T13A4 001:409 JLINK_WriteReg(R9, 0x20000194)  returns 0x00 (0000ms, 0837ms total)
T13A4 001:409 JLINK_WriteReg(R10, 0x00000000)  returns 0x00 (0000ms, 0837ms total)
T13A4 001:409 JLINK_WriteReg(R11, 0x00000000)  returns 0x00 (0000ms, 0837ms total)
T13A4 001:409 JLINK_WriteReg(R12, 0x00000000)  returns 0x00 (0000ms, 0837ms total)
T13A4 001:409 JLINK_WriteReg(R13 (SP), 0x20000800)  returns 0x00 (0000ms, 0837ms total)
T13A4 001:409 JLINK_WriteReg(R14, 0x20000001)  returns 0x00 (0000ms, 0837ms total)
T13A4 001:409 JLINK_WriteReg(R15 (PC), 0x20000120)  returns 0x00 (0000ms, 0837ms total)
T13A4 001:409 JLINK_WriteReg(XPSR, 0x01000000)  returns 0x00 (0000ms, 0837ms total)
T13A4 001:409 JLINK_WriteReg(MSP, 0x20000800)  returns 0x00 (0000ms, 0837ms total)
T13A4 001:409 JLINK_WriteReg(PSP, 0x20000800)  returns 0x00 (0000ms, 0837ms total)
T13A4 001:409 JLINK_WriteReg(CFBP, 0x00000000)  returns 0x00 (0000ms, 0837ms total)
T13A4 001:409 JLINK_SetBPEx(Addr = 0x20000000, Type = 0xFFFFFFF2)  returns 0x0000000C (0000ms, 0837ms total)
T13A4 001:409 JLINK_Go() (0003ms, 0840ms total)
T13A4 001:412 JLINK_IsHalted()  returns FALSE (0001ms, 0841ms total)
T13A4 001:417 JLINK_IsHalted() -- CPU_ReadMem(2 bytes @ 0x20000000)  returns TRUE (0005ms, 0845ms total)
T13A4 001:422 JLINK_ReadReg(R15 (PC))  returns 0x20000000 (0000ms, 0840ms total)
T13A4 001:422 JLINK_ClrBPEx(BPHandle = 0x0000000C)  returns 0x00 (0000ms, 0840ms total)
T13A4 001:422 JLINK_ReadReg(R0)  returns 0x00000000 (0001ms, 0841ms total)
T13A4 001:423 JLINK_WriteMem(0x20000198, 0x0400 Bytes, ...) - Data: 38 BD 00 00 28 00 00 20 01 48 01 F0 61 BF 00 00 ... -- CPU_WriteMem(1024 bytes @ 0x20000198)  returns 0x400 (0007ms, 0848ms total)
T13A4 001:430 JLINK_WriteReg(R0, 0x08001800)  returns 0x00 (0000ms, 0848ms total)
T13A4 001:430 JLINK_WriteReg(R1, 0x00000400)  returns 0x00 (0000ms, 0848ms total)
T13A4 001:430 JLINK_WriteReg(R2, 0x20000198)  returns 0x00 (0000ms, 0848ms total)
T13A4 001:430 JLINK_WriteReg(R3, 0x00000000)  returns 0x00 (0000ms, 0848ms total)
T13A4 001:430 JLINK_WriteReg(R4, 0x00000000)  returns 0x00 (0000ms, 0848ms total)
T13A4 001:430 JLINK_WriteReg(R5, 0x00000000)  returns 0x00 (0000ms, 0848ms total)
T13A4 001:430 JLINK_WriteReg(R6, 0x00000000)  returns 0x00 (0000ms, 0848ms total)
T13A4 001:430 JLINK_WriteReg(R7, 0x00000000)  returns 0x00 (0000ms, 0848ms total)
T13A4 001:430 JLINK_WriteReg(R8, 0x00000000)  returns 0x00 (0000ms, 0848ms total)
T13A4 001:430 JLINK_WriteReg(R9, 0x20000194)  returns 0x00 (0000ms, 0848ms total)
T13A4 001:430 JLINK_WriteReg(R10, 0x00000000)  returns 0x00 (0000ms, 0848ms total)
T13A4 001:430 JLINK_WriteReg(R11, 0x00000000)  returns 0x00 (0000ms, 0848ms total)
T13A4 001:430 JLINK_WriteReg(R12, 0x00000000)  returns 0x00 (0000ms, 0848ms total)
T13A4 001:430 JLINK_WriteReg(R13 (SP), 0x20000800)  returns 0x00 (0000ms, 0848ms total)
T13A4 001:430 JLINK_WriteReg(R14, 0x20000001)  returns 0x00 (0000ms, 0848ms total)
T13A4 001:430 JLINK_WriteReg(R15 (PC), 0x20000120)  returns 0x00 (0000ms, 0848ms total)
T13A4 001:430 JLINK_WriteReg(XPSR, 0x01000000)  returns 0x00 (0000ms, 0848ms total)
T13A4 001:430 JLINK_WriteReg(MSP, 0x20000800)  returns 0x00 (0000ms, 0848ms total)
T13A4 001:430 JLINK_WriteReg(PSP, 0x20000800)  returns 0x00 (0000ms, 0848ms total)
T13A4 001:430 JLINK_WriteReg(CFBP, 0x00000000)  returns 0x00 (0000ms, 0848ms total)
T13A4 001:430 JLINK_SetBPEx(Addr = 0x20000000, Type = 0xFFFFFFF2)  returns 0x0000000D (0000ms, 0848ms total)
T13A4 001:430 JLINK_Go() (0003ms, 0851ms total)
T13A4 001:433 JLINK_IsHalted()  returns FALSE (0001ms, 0852ms total)
T13A4 001:439 JLINK_IsHalted() -- CPU_ReadMem(2 bytes @ 0x20000000)  returns TRUE (0005ms, 0856ms total)
T13A4 001:444 JLINK_ReadReg(R15 (PC))  returns 0x20000000 (0000ms, 0851ms total)
T13A4 001:444 JLINK_ClrBPEx(BPHandle = 0x0000000D)  returns 0x00 (0001ms, 0852ms total)
T13A4 001:445 JLINK_ReadReg(R0)  returns 0x00000000 (0000ms, 0852ms total)
T13A4 001:445 JLINK_WriteMem(0x20000198, 0x0400 Bytes, ...) - Data: C1 60 70 BD 08 38 02 40 00 24 F4 00 40 78 7D 01 ... -- CPU_WriteMem(1024 bytes @ 0x20000198)  returns 0x400 (0007ms, 0859ms total)
T13A4 001:452 JLINK_WriteReg(R0, 0x08001C00)  returns 0x00 (0000ms, 0859ms total)
T13A4 001:452 JLINK_WriteReg(R1, 0x00000400)  returns 0x00 (0000ms, 0859ms total)
T13A4 001:452 JLINK_WriteReg(R2, 0x20000198)  returns 0x00 (0000ms, 0859ms total)
T13A4 001:452 JLINK_WriteReg(R3, 0x00000000)  returns 0x00 (0000ms, 0859ms total)
T13A4 001:452 JLINK_WriteReg(R4, 0x00000000)  returns 0x00 (0000ms, 0859ms total)
T13A4 001:452 JLINK_WriteReg(R5, 0x00000000)  returns 0x00 (0000ms, 0859ms total)
T13A4 001:452 JLINK_WriteReg(R6, 0x00000000)  returns 0x00 (0000ms, 0859ms total)
T13A4 001:452 JLINK_WriteReg(R7, 0x00000000)  returns 0x00 (0000ms, 0859ms total)
T13A4 001:452 JLINK_WriteReg(R8, 0x00000000)  returns 0x00 (0000ms, 0859ms total)
T13A4 001:452 JLINK_WriteReg(R9, 0x20000194)  returns 0x00 (0000ms, 0859ms total)
T13A4 001:452 JLINK_WriteReg(R10, 0x00000000)  returns 0x00 (0000ms, 0859ms total)
T13A4 001:452 JLINK_WriteReg(R11, 0x00000000)  returns 0x00 (0000ms, 0859ms total)
T13A4 001:452 JLINK_WriteReg(R12, 0x00000000)  returns 0x00 (0000ms, 0859ms total)
T13A4 001:452 JLINK_WriteReg(R13 (SP), 0x20000800)  returns 0x00 (0000ms, 0859ms total)
T13A4 001:452 JLINK_WriteReg(R14, 0x20000001)  returns 0x00 (0000ms, 0859ms total)
T13A4 001:452 JLINK_WriteReg(R15 (PC), 0x20000120)  returns 0x00 (0000ms, 0859ms total)
T13A4 001:452 JLINK_WriteReg(XPSR, 0x01000000)  returns 0x00 (0000ms, 0859ms total)
T13A4 001:452 JLINK_WriteReg(MSP, 0x20000800)  returns 0x00 (0000ms, 0859ms total)
T13A4 001:452 JLINK_WriteReg(PSP, 0x20000800)  returns 0x00 (0000ms, 0859ms total)
T13A4 001:452 JLINK_WriteReg(CFBP, 0x00000000)  returns 0x00 (0000ms, 0859ms total)
T13A4 001:452 JLINK_SetBPEx(Addr = 0x20000000, Type = 0xFFFFFFF2)  returns 0x0000000E (0000ms, 0859ms total)
T13A4 001:452 JLINK_Go() (0003ms, 0862ms total)
T13A4 001:455 JLINK_IsHalted()  returns FALSE (0001ms, 0863ms total)
T13A4 001:467 JLINK_IsHalted() -- CPU_ReadMem(2 bytes @ 0x20000000)  returns TRUE (0005ms, 0867ms total)
T13A4 001:472 JLINK_ReadReg(R15 (PC))  returns 0x20000000 (0001ms, 0863ms total)
T13A4 001:473 JLINK_ClrBPEx(BPHandle = 0x0000000E)  returns 0x00 (0000ms, 0863ms total)
T13A4 001:473 JLINK_ReadReg(R0)  returns 0x00000000 (0000ms, 0863ms total)
T13A4 001:474 JLINK_WriteMem(0x20000198, 0x0400 Bytes, ...) - Data: 02 68 92 01 FC D5 02 68 12 01 FC D4 11 48 02 68 ... -- CPU_WriteMem(1024 bytes @ 0x20000198)  returns 0x400 (0007ms, 0870ms total)
T13A4 001:481 JLINK_WriteReg(R0, 0x08002000)  returns 0x00 (0000ms, 0870ms total)
T13A4 001:481 JLINK_WriteReg(R1, 0x00000400)  returns 0x00 (0000ms, 0870ms total)
T13A4 001:481 JLINK_WriteReg(R2, 0x20000198)  returns 0x00 (0000ms, 0870ms total)
T13A4 001:481 JLINK_WriteReg(R3, 0x00000000)  returns 0x00 (0000ms, 0870ms total)
T13A4 001:481 JLINK_WriteReg(R4, 0x00000000)  returns 0x00 (0000ms, 0870ms total)
T13A4 001:481 JLINK_WriteReg(R5, 0x00000000)  returns 0x00 (0000ms, 0870ms total)
T13A4 001:481 JLINK_WriteReg(R6, 0x00000000)  returns 0x00 (0000ms, 0870ms total)
T13A4 001:481 JLINK_WriteReg(R7, 0x00000000)  returns 0x00 (0000ms, 0870ms total)
T13A4 001:481 JLINK_WriteReg(R8, 0x00000000)  returns 0x00 (0000ms, 0870ms total)
T13A4 001:481 JLINK_WriteReg(R9, 0x20000194)  returns 0x00 (0000ms, 0870ms total)
T13A4 001:481 JLINK_WriteReg(R10, 0x00000000)  returns 0x00 (0000ms, 0870ms total)
T13A4 001:481 JLINK_WriteReg(R11, 0x00000000)  returns 0x00 (0000ms, 0870ms total)
T13A4 001:481 JLINK_WriteReg(R12, 0x00000000)  returns 0x00 (0000ms, 0870ms total)
T13A4 001:481 JLINK_WriteReg(R13 (SP), 0x20000800)  returns 0x00 (0000ms, 0870ms total)
T13A4 001:481 JLINK_WriteReg(R14, 0x20000001)  returns 0x00 (0000ms, 0870ms total)
T13A4 001:481 JLINK_WriteReg(R15 (PC), 0x20000120)  returns 0x00 (0000ms, 0870ms total)
T13A4 001:481 JLINK_WriteReg(XPSR, 0x01000000)  returns 0x00 (0000ms, 0870ms total)
T13A4 001:481 JLINK_WriteReg(MSP, 0x20000800)  returns 0x00 (0000ms, 0870ms total)
T13A4 001:481 JLINK_WriteReg(PSP, 0x20000800)  returns 0x00 (0000ms, 0870ms total)
T13A4 001:481 JLINK_WriteReg(CFBP, 0x00000000)  returns 0x00 (0000ms, 0870ms total)
T13A4 001:481 JLINK_SetBPEx(Addr = 0x20000000, Type = 0xFFFFFFF2)  returns 0x0000000F (0000ms, 0870ms total)
T13A4 001:481 JLINK_Go() (0003ms, 0873ms total)
T13A4 001:484 JLINK_IsHalted()  returns FALSE (0001ms, 0874ms total)
T13A4 001:498 JLINK_IsHalted() -- CPU_ReadMem(2 bytes @ 0x20000000)  returns TRUE (0006ms, 0879ms total)
T13A4 001:504 JLINK_ReadReg(R15 (PC))  returns 0x20000000 (0000ms, 0873ms total)
T13A4 001:504 JLINK_ClrBPEx(BPHandle = 0x0000000F)  returns 0x00 (0000ms, 0873ms total)
T13A4 001:504 JLINK_ReadReg(R0)  returns 0x00000000 (0000ms, 0873ms total)
T13A4 001:505 JLINK_WriteMem(0x20000198, 0x0400 Bytes, ...) - Data: E6 70 06 E0 26 71 65 71 01 E0 25 71 66 71 A1 71 ... -- CPU_WriteMem(1024 bytes @ 0x20000198)  returns 0x400 (0006ms, 0879ms total)
T13A4 001:511 JLINK_WriteReg(R0, 0x08002400)  returns 0x00 (0000ms, 0879ms total)
T13A4 001:511 JLINK_WriteReg(R1, 0x00000400)  returns 0x00 (0000ms, 0879ms total)
T13A4 001:511 JLINK_WriteReg(R2, 0x20000198)  returns 0x00 (0000ms, 0879ms total)
T13A4 001:511 JLINK_WriteReg(R3, 0x00000000)  returns 0x00 (0000ms, 0879ms total)
T13A4 001:511 JLINK_WriteReg(R4, 0x00000000)  returns 0x00 (0000ms, 0879ms total)
T13A4 001:511 JLINK_WriteReg(R5, 0x00000000)  returns 0x00 (0000ms, 0879ms total)
T13A4 001:511 JLINK_WriteReg(R6, 0x00000000)  returns 0x00 (0000ms, 0879ms total)
T13A4 001:511 JLINK_WriteReg(R7, 0x00000000)  returns 0x00 (0000ms, 0879ms total)
T13A4 001:511 JLINK_WriteReg(R8, 0x00000000)  returns 0x00 (0000ms, 0879ms total)
T13A4 001:511 JLINK_WriteReg(R9, 0x20000194)  returns 0x00 (0000ms, 0879ms total)
T13A4 001:511 JLINK_WriteReg(R10, 0x00000000)  returns 0x00 (0000ms, 0879ms total)
T13A4 001:511 JLINK_WriteReg(R11, 0x00000000)  returns 0x00 (0000ms, 0879ms total)
T13A4 001:511 JLINK_WriteReg(R12, 0x00000000)  returns 0x00 (0000ms, 0879ms total)
T13A4 001:511 JLINK_WriteReg(R13 (SP), 0x20000800)  returns 0x00 (0000ms, 0879ms total)
T13A4 001:511 JLINK_WriteReg(R14, 0x20000001)  returns 0x00 (0000ms, 0879ms total)
T13A4 001:511 JLINK_WriteReg(R15 (PC), 0x20000120)  returns 0x00 (0000ms, 0879ms total)
T13A4 001:511 JLINK_WriteReg(XPSR, 0x01000000)  returns 0x00 (0000ms, 0879ms total)
T13A4 001:511 JLINK_WriteReg(MSP, 0x20000800)  returns 0x00 (0000ms, 0879ms total)
T13A4 001:511 JLINK_WriteReg(PSP, 0x20000800)  returns 0x00 (0000ms, 0879ms total)
T13A4 001:511 JLINK_WriteReg(CFBP, 0x00000000)  returns 0x00 (0000ms, 0879ms total)
T13A4 001:511 JLINK_SetBPEx(Addr = 0x20000000, Type = 0xFFFFFFF2)  returns 0x00000010 (0001ms, 0880ms total)
T13A4 001:512 JLINK_Go() (0002ms, 0882ms total)
T13A4 001:514 JLINK_IsHalted()  returns FALSE (0001ms, 0883ms total)
T13A4 001:518 JLINK_IsHalted() -- CPU_ReadMem(2 bytes @ 0x20000000)  returns TRUE (0006ms, 0888ms total)
T13A4 001:524 JLINK_ReadReg(R15 (PC))  returns 0x20000000 (0000ms, 0882ms total)
T13A4 001:524 JLINK_ClrBPEx(BPHandle = 0x00000010)  returns 0x00 (0000ms, 0882ms total)
T13A4 001:524 JLINK_ReadReg(R0)  returns 0x00000000 (0000ms, 0882ms total)
T13A4 001:525 JLINK_WriteMem(0x20000198, 0x0400 Bytes, ...) - Data: 6D 1C F2 E7 57 F8 04 9B 6D 1C 28 78 6C 28 0F D0 ... -- CPU_WriteMem(1024 bytes @ 0x20000198)  returns 0x400 (0006ms, 0888ms total)
T13A4 001:531 JLINK_WriteReg(R0, 0x08002800)  returns 0x00 (0000ms, 0888ms total)
T13A4 001:531 JLINK_WriteReg(R1, 0x00000400)  returns 0x00 (0000ms, 0888ms total)
T13A4 001:531 JLINK_WriteReg(R2, 0x20000198)  returns 0x00 (0000ms, 0888ms total)
T13A4 001:531 JLINK_WriteReg(R3, 0x00000000)  returns 0x00 (0000ms, 0888ms total)
T13A4 001:531 JLINK_WriteReg(R4, 0x00000000)  returns 0x00 (0000ms, 0888ms total)
T13A4 001:531 JLINK_WriteReg(R5, 0x00000000)  returns 0x00 (0000ms, 0888ms total)
T13A4 001:531 JLINK_WriteReg(R6, 0x00000000)  returns 0x00 (0000ms, 0888ms total)
T13A4 001:531 JLINK_WriteReg(R7, 0x00000000)  returns 0x00 (0000ms, 0888ms total)
T13A4 001:531 JLINK_WriteReg(R8, 0x00000000)  returns 0x00 (0000ms, 0888ms total)
T13A4 001:531 JLINK_WriteReg(R9, 0x20000194)  returns 0x00 (0000ms, 0888ms total)
T13A4 001:531 JLINK_WriteReg(R10, 0x00000000)  returns 0x00 (0000ms, 0888ms total)
T13A4 001:531 JLINK_WriteReg(R11, 0x00000000)  returns 0x00 (0000ms, 0888ms total)
T13A4 001:531 JLINK_WriteReg(R12, 0x00000000)  returns 0x00 (0000ms, 0888ms total)
T13A4 001:531 JLINK_WriteReg(R13 (SP), 0x20000800)  returns 0x00 (0000ms, 0888ms total)
T13A4 001:531 JLINK_WriteReg(R14, 0x20000001)  returns 0x00 (0000ms, 0888ms total)
T13A4 001:531 JLINK_WriteReg(R15 (PC), 0x20000120)  returns 0x00 (0000ms, 0888ms total)
T13A4 001:531 JLINK_WriteReg(XPSR, 0x01000000)  returns 0x00 (0000ms, 0888ms total)
T13A4 001:531 JLINK_WriteReg(MSP, 0x20000800)  returns 0x00 (0001ms, 0889ms total)
T13A4 001:532 JLINK_WriteReg(PSP, 0x20000800)  returns 0x00 (0000ms, 0889ms total)
T13A4 001:532 JLINK_WriteReg(CFBP, 0x00000000)  returns 0x00 (0000ms, 0889ms total)
T13A4 001:532 JLINK_SetBPEx(Addr = 0x20000000, Type = 0xFFFFFFF2)  returns 0x00000011 (0000ms, 0889ms total)
T13A4 001:532 JLINK_Go() (0002ms, 0891ms total)
T13A4 001:534 JLINK_IsHalted()  returns FALSE (0001ms, 0892ms total)
T13A4 001:536 JLINK_IsHalted()  returns FALSE (0001ms, 0892ms total)
